T0618 053:346 SEGGER J-Link V6.30h Log File (0000ms, 1377ms total)
T0618 053:346 DLL Compiled: Mar 16 2018 18:02:51 (0000ms, 1377ms total)
T0618 053:346 Logging started @ 2018-07-09 18:34 (0000ms, 1377ms total)
T0618 053:346 JLINK_SetWarnOutHandler(...) (0000ms, 1377ms total)
T0618 053:346 JLINK_OpenEx(...)
Firmware: J-Link V9 compiled Mar  2 2018 17:07:57
Hardware: V9.40
S/N: 59404317
Feature(s): RDI, GDB, FlashDL, FlashBP, JFlash
TELNET listener socket opened on port 19021WEBSRV 
Starting webserver (0138ms, 1515ms total)
T0618 053:346 WEBSRV Webserver running on local port 19080 (0140ms, 1517ms total)
T0618 053:346   returns O.K. (0140ms, 1517ms total)
T0618 053:486 JLINK_GetEmuCaps()  returns 0xB9FF7BBF (0000ms, 1517ms total)
T0618 053:487 JLINK_TIF_GetAvailable(...) (0000ms, 1517ms total)
T0618 053:487 JLINK_SetErrorOutHandler(...) (0000ms, 1517ms total)
T0618 053:487 JLINK_ExecCommand("ProjectFile = "J:\STM32_MCU\STM32F407\STM32F407xxProject\MDKARM\JLinkSettings.ini"", ...).   returns 0x00 (0003ms, 1520ms total)
T0618 053:490 JLINK_ExecCommand("Device = STM32F407VETx", ...). Device "STM32F407VE" selected.  returns 0x00 (0002ms, 1522ms total)
T0618 053:492 JLINK_ExecCommand("DisableConnectionTimeout", ...).   returns 0x01 (0000ms, 1522ms total)
T0618 053:492 JLINK_GetHardwareVersion()  returns 0x16F30 (0000ms, 1522ms total)
T0618 053:492 JLINK_GetDLLVersion()  returns 63008 (0000ms, 1522ms total)
T0618 053:492 JLINK_GetFirmwareString(...) (0000ms, 1522ms total)
T0618 053:492 JLINK_GetDLLVersion()  returns 63008 (0000ms, 1522ms total)
T0618 053:492 JLINK_GetCompileDateTime() (0000ms, 1522ms total)
T0618 053:492 JLINK_GetFirmwareString(...) (0000ms, 1522ms total)
T0618 053:492 JLINK_GetHardwareVersion()  returns 0x16F30 (0000ms, 1522ms total)
T0618 053:492 JLINK_TIF_Select(JLINKARM_TIF_JTAG)  returns 0x00 (0001ms, 1523ms total)
T0618 053:493 JLINK_SetSpeed(5000) (0000ms, 1523ms total)
T0618 053:493 JLINK_GetIdData(...) >0x2F8 JTAG>TotalIRLen = 9, IRPrint = 0x0011 >0x30 JTAG> >0x50 JTAG>JTAG chain detection found 2 devices: #0 Id: 0x4BA00477, IRLen: 04, CoreSight JTAG-DP #1 Id: 0x06413041, IRLen: 05, STM32 Boundary Scan >0x40 JTAG> >0x40 JTAG> >0x40 JTAG> >0x30 JTAG> >0x40 JTAG> >0x40 JTAG> >0x40 JTAG> >0x40 JTAG> >0x40 JTAG> >0x40 JTAG> >0x40 JTAG> >0x40 JTAG> >0x40 JTAG> >0x40 JTAG> >0x40 JTAG> >0x40 JTAG> >0x40 JTAG> >0x40 JTAG> >0x40 JTAG> >0x40 JTAG> >0x40 JTAG> >0x40 JTAG>
 >0x40 JTAG> >0x40 JTAG> >0x2F8 JTAG>TotalIRLen = 9, IRPrint = 0x0011 >0x30 JTAG> >0x50 JTAG>JTAG chain detection found 2 devices: #0 Id: 0x4BA00477, IRLen: 04, CoreSight JTAG-DP #1 Id: 0x06413041, IRLen: 05, STM32 Boundary ScanScanning AP map to find all available APs >0x80 JTAG> >0x50 JTAG> >0x40 JTAG> >0x40 JTAG> >0x50 JTAG> >0x40 JTAG>AP[1]: Stopped AP scan as end of AP map has been reachedAP[0]: AHB-AP (IDR: 0x24770011)Iterating through AP map to find AHB-AP to use >0x80 JTAG> >0x50 JTAG>
 >0x50 JTAG> >0x80 JTAG> >0x40 JTAG> >0x30 JTAG> >0x40 JTAG> >0x40 JTAG>AP[0]: Core foundAP[0]: AHB-AP ROM base: 0xE00FF000 >0x40 JTAG> >0x40 JTAG> >0x30 JTAG> >0x40 JTAG> >0x40 JTAG>CPUID register: 0x410FC241. Implementer code: 0x41 (ARM)Found Cortex-M4 r0p1, Little endian. -- CPU_ReadMem(4 bytes @ 0xE000EDF0) -- CPU_WriteMem(4 bytes @ 0xE000EDF0) -- CPU_ReadMem(4 bytes @ 0xE0002000)FPUnit: 6 code (BP) slots and 2 literal slots -- CPU_ReadMem(4 bytes @ 0xE000EDFC) -- CPU_WriteMem(4 bytes @ 0xE000EDFC)
 -- CPU_ReadMem(4 bytes @ 0xE0001000) -- CPU_WriteMem(4 bytes @ 0xE0001000) -- CPU_ReadMem(4 bytes @ 0xE000ED88) -- CPU_WriteMem(4 bytes @ 0xE000ED88) -- CPU_ReadMem(4 bytes @ 0xE000ED88) -- CPU_WriteMem(4 bytes @ 0xE000ED88)CoreSight components:ROMTbl[0] @ E00FF000 -- CPU_ReadMem(16 bytes @ 0xE00FF000) -- CPU_ReadMem(16 bytes @ 0xE000EFF0) -- CPU_ReadMem(16 bytes @ 0xE000EFE0)ROMTbl[0][0]: E000E000, CID: B105E00D, PID: 000BB00C SCS-M7 -- CPU_ReadMem(16 bytes @ 0xE0001FF0)
 -- CPU_ReadMem(16 bytes @ 0xE0001FE0)ROMTbl[0][1]: E0001000, CID: B105E00D, PID: 003BB002 DWT -- CPU_ReadMem(16 bytes @ 0xE0002FF0) -- CPU_ReadMem(16 bytes @ 0xE0002FE0)ROMTbl[0][2]: E0002000, CID: B105E00D, PID: 002BB003 FPB -- CPU_ReadMem(16 bytes @ 0xE0000FF0) -- CPU_ReadMem(16 bytes @ 0xE0000FE0)ROMTbl[0][3]: E0000000, CID: B105E00D, PID: 003BB001 ITM -- CPU_ReadMem(16 bytes @ 0xE00FF010) -- CPU_ReadMem(16 bytes @ 0xE0040FF0) -- CPU_ReadMem(16 bytes @ 0xE0040FE0)
ROMTbl[0][4]: E0040000, CID: B105900D, PID: 000BB9A1 TPIU -- CPU_ReadMem(16 bytes @ 0xE0041FF0) -- CPU_ReadMem(16 bytes @ 0xE0041FE0)ROMTbl[0][5]: E0041000, CID: B105900D, PID: 000BB925 ETM ScanLen=9 NumDevices=2 aId[0]=0x4BA00477 aIrRead[0]=0 aScanLen[0]=0 aScanRead[0]=0 (0020ms, 1543ms total)
T0618 053:513 JLINK_JTAG_GetDeviceID(DeviceIndex = 0)  returns 0x4BA00477 (0000ms, 1543ms total)
T0618 053:513 JLINK_JTAG_GetDeviceInfo(DeviceIndex = 0)  returns 0x00 (0000ms, 1543ms total)
T0618 053:513 JLINK_JTAG_GetDeviceID(DeviceIndex = 1)  returns 0x6413041 (0000ms, 1543ms total)
T0618 053:513 JLINK_JTAG_GetDeviceInfo(DeviceIndex = 1)  returns 0x00 (0000ms, 1543ms total)
T0618 053:513 JLINK_GetDLLVersion()  returns 63008 (0000ms, 1543ms total)
T0618 053:513 JLINK_CORE_GetFound()  returns 0xE0000FF (0000ms, 1543ms total)
T0618 053:513 JLINK_GetDebugInfo(0x100 = JLINKARM_ROM_TABLE_ADDR_INDEX) -- Value=0xE00FF000  returns 0x00 (0000ms, 1543ms total)
T0618 053:513 JLINK_GetDebugInfo(0x100 = JLINKARM_ROM_TABLE_ADDR_INDEX) -- Value=0xE00FF000  returns 0x00 (0000ms, 1543ms total)
T0618 053:513 JLINK_GetDebugInfo(0x101 = JLINKARM_DEBUG_INFO_ETM_ADDR_INDEX) -- Value=0xE0041000  returns 0x00 (0000ms, 1543ms total)
T0618 053:513 JLINK_ReadMemEx(0xE0041FD0, 0x0020 Bytes, ..., Flags = 0x02000004) -- CPU_ReadMem(32 bytes @ 0xE0041FD0) - Data: 04 00 00 00 00 00 00 00 00 00 00 00 00 00 00 00 ...  returns 0x20 (0001ms, 1544ms total)
T0618 053:514 JLINK_GetDebugInfo(0x102 = JLINKARM_DEBUG_INFO_MTB_ADDR_INDEX) -- Value=0x00000000  returns 0x00 (0000ms, 1544ms total)
T0618 053:514 JLINK_GetDebugInfo(0x103 = JLINKARM_DEBUG_INFO_TPIU_ADDR_INDEX) -- Value=0xE0040000  returns 0x00 (0000ms, 1544ms total)
T0618 053:514 JLINK_GetDebugInfo(0x104 = JLINKARM_DEBUG_INFO_ITM_ADDR_INDEX) -- Value=0xE0000000  returns 0x00 (0000ms, 1544ms total)
T0618 053:514 JLINK_GetDebugInfo(0x105 = JLINKARM_DEBUG_INFO_DWT_ADDR_INDEX) -- Value=0xE0001000  returns 0x00 (0000ms, 1544ms total)
T0618 053:514 JLINK_GetDebugInfo(0x106 = JLINKARM_DEBUG_INFO_FPB_ADDR_INDEX) -- Value=0xE0002000  returns 0x00 (0000ms, 1544ms total)
T0618 053:514 JLINK_GetDebugInfo(0x107 = JLINKARM_DEBUG_INFO_NVIC_ADDR_INDEX) -- Value=0xE000E000  returns 0x00 (0000ms, 1544ms total)
T0618 053:514 JLINK_GetDebugInfo(0x10C = JLINKARM_DEBUG_INFO_DBG_ADDR_INDEX) -- Value=0xE000EDF0  returns 0x00 (0000ms, 1544ms total)
T0618 053:514 JLINK_GetDebugInfo(0x01 = Unknown) -- Value=0x00000001  returns 0x00 (0000ms, 1544ms total)
T0618 053:514 JLINK_ReadMemU32(0xE000ED00, 0x0001 Items, ...) -- CPU_ReadMem(4 bytes @ 0xE000ED00) - Data: 41 C2 0F 41  returns 0x01 (0000ms, 1544ms total)
T0618 053:514 JLINK_GetDebugInfo(0x10F = JLINKARM_DEBUG_INFO_HAS_CORTEX_M_SECURITY_EXT_INDEX) -- Value=0x00000000  returns 0x00 (0000ms, 1544ms total)
T0618 053:514 JLINK_SetResetType(JLINKARM_CM3_RESET_TYPE_NORMAL)  returns JLINKARM_CM3_RESET_TYPE_NORMAL (0000ms, 1544ms total)
T0618 053:514 JLINK_Reset() -- CPU is running -- CPU_WriteMem(4 bytes @ 0xE000EDF0) -- CPU is running -- CPU_WriteMem(4 bytes @ 0xE000EDFC)Reset: Halt core after reset via DEMCR.VC_CORERESET.Reset: Reset device via AIRCR.SYSRESETREQ. -- CPU is running -- CPU_WriteMem(4 bytes @ 0xE000ED0C) -- CPU_ReadMem(4 bytes @ 0xE000EDF0) -- CPU_ReadMem(4 bytes @ 0xE000EDF0) -- CPU is running -- CPU_WriteMem(4 bytes @ 0xE000EDF0) -- CPU is running -- CPU_WriteMem(4 bytes @ 0xE000EDFC)
 -- CPU_ReadMem(4 bytes @ 0xE000EDF0) -- CPU_WriteMem(4 bytes @ 0xE000EDFC) -- CPU_WriteMem(4 bytes @ 0xE0001028) -- CPU_WriteMem(4 bytes @ 0xE0001038) -- CPU_WriteMem(4 bytes @ 0xE0001048) -- CPU_WriteMem(4 bytes @ 0xE0001058) -- CPU_WriteMem(4 bytes @ 0xE0002000) -- CPU_ReadMem(4 bytes @ 0xE000EDFC) -- CPU_ReadMem(4 bytes @ 0xE0001000) (0065ms, 1609ms total)
T0618 053:579 JLINK_ReadReg(R15 (PC))  returns 0x0800019C (0000ms, 1609ms total)
T0618 053:579 JLINK_ReadReg(XPSR)  returns 0x01000000 (0000ms, 1609ms total)
T0618 053:579 JLINK_Halt()  returns 0x00 (0000ms, 1609ms total)
T0618 053:579 JLINK_ReadMemU32(0xE000EDF0, 0x0001 Items, ...) -- CPU_ReadMem(4 bytes @ 0xE000EDF0) - Data: 03 00 03 00  returns 0x01 (0000ms, 1609ms total)
T0618 053:579 JLINK_WriteU32(0xE000EDF0, 0xA05F0003) -- CPU_WriteMem(4 bytes @ 0xE000EDF0)  returns 0x00 (0001ms, 1610ms total)
T0618 053:580 JLINK_WriteU32(0xE000EDFC, 0x01000000) -- CPU_WriteMem(4 bytes @ 0xE000EDFC)  returns 0x00 (0000ms, 1610ms total)
T0618 053:580 JLINK_GetHWStatus(...)  returns 0x00 (0000ms, 1610ms total)
T0618 053:580 JLINK_GetNumBPUnits(Type = 0xFFFFFF00)  returns 0x06 (0000ms, 1610ms total)
T0618 053:580 JLINK_GetNumBPUnits(Type = 0xF0)  returns 0x2000 (0000ms, 1610ms total)
T0618 053:580 JLINK_GetNumWPUnits()  returns 0x04 (0000ms, 1610ms total)
T0618 053:581 JLINK_GetSpeed()  returns 0x1388 (0000ms, 1611ms total)
T0618 053:581 JLINK_ReadMemU32(0xE000E004, 0x0001 Items, ...) -- CPU_ReadMem(4 bytes @ 0xE000E004) - Data: 02 00 00 00  returns 0x01 (0000ms, 1611ms total)
T0618 053:581 JLINK_ReadMemU32(0xE000E004, 0x0001 Items, ...) -- CPU_ReadMem(4 bytes @ 0xE000E004) - Data: 02 00 00 00  returns 0x01 (0000ms, 1611ms total)
T0618 053:581 JLINK_WriteMemEx(0xE0001000, 0x001C Bytes, ..., Flags = 0x02000004) - Data: 01 00 00 00 00 00 00 00 00 00 00 00 00 00 00 00 ... -- CPU_WriteMem(28 bytes @ 0xE0001000)  returns 0x1C (0001ms, 1612ms total)
T0618 053:582 JLINK_ReadReg(R15 (PC))  returns 0x0800019C (0000ms, 1612ms total)
T0618 053:582 JLINK_ReadReg(XPSR)  returns 0x01000000 (0000ms, 1612ms total)
T0618 053:723 JLINK_SetResetType(JLINKARM_CM3_RESET_TYPE_NORMAL)  returns JLINKARM_CM3_RESET_TYPE_NORMAL (0000ms, 1612ms total)
T0618 053:723 JLINK_Reset() -- CPU_WriteMem(4 bytes @ 0xE000EDF0) -- CPU_WriteMem(4 bytes @ 0xE000EDFC)Reset: Halt core after reset via DEMCR.VC_CORERESET.Reset: Reset device via AIRCR.SYSRESETREQ. -- CPU_WriteMem(4 bytes @ 0xE000ED0C) -- CPU_ReadMem(4 bytes @ 0xE000EDF0) -- CPU_ReadMem(4 bytes @ 0xE000EDF0) -- CPU_WriteMem(4 bytes @ 0xE000EDF0) -- CPU_WriteMem(4 bytes @ 0xE000EDFC) -- CPU_ReadMem(4 bytes @ 0xE000EDF0) -- CPU_WriteMem(4 bytes @ 0xE000EDFC) -- CPU_WriteMem(4 bytes @ 0xE0001028)
 -- CPU_WriteMem(4 bytes @ 0xE0001038) -- CPU_WriteMem(4 bytes @ 0xE0001048) -- CPU_WriteMem(4 bytes @ 0xE0001058) -- CPU_WriteMem(4 bytes @ 0xE0002000) -- CPU_ReadMem(4 bytes @ 0xE000EDFC) -- CPU_ReadMem(4 bytes @ 0xE0001000) (0065ms, 1677ms total)
T0618 053:788 JLINK_ReadReg(R15 (PC))  returns 0x0800019C (0000ms, 1677ms total)
T0618 053:788 JLINK_ReadReg(XPSR)  returns 0x01000000 (0000ms, 1677ms total)
T0618 053:788 JLINK_ReadReg(R0)  returns 0x00000000 (0000ms, 1677ms total)
T0618 053:788 JLINK_ReadReg(R1)  returns 0x00000000 (0000ms, 1677ms total)
T0618 053:788 JLINK_ReadReg(R2)  returns 0x00000000 (0000ms, 1677ms total)
T0618 053:788 JLINK_ReadReg(R3)  returns 0x00000000 (0000ms, 1677ms total)
T0618 053:788 JLINK_ReadReg(R4)  returns 0x00000000 (0000ms, 1677ms total)
T0618 053:788 JLINK_ReadReg(R5)  returns 0x00000000 (0000ms, 1677ms total)
T0618 053:788 JLINK_ReadReg(R6)  returns 0x00000000 (0000ms, 1677ms total)
T0618 053:788 JLINK_ReadReg(R7)  returns 0x00000000 (0000ms, 1677ms total)
T0618 053:788 JLINK_ReadReg(R8)  returns 0x00000000 (0000ms, 1677ms total)
T0618 053:788 JLINK_ReadReg(R9)  returns 0x00000000 (0000ms, 1677ms total)
T0618 053:788 JLINK_ReadReg(R10)  returns 0x00000000 (0000ms, 1677ms total)
T0618 053:788 JLINK_ReadReg(R11)  returns 0x00000000 (0000ms, 1677ms total)
T0618 053:788 JLINK_ReadReg(R12)  returns 0x00000000 (0000ms, 1677ms total)
T0618 053:788 JLINK_ReadReg(R13 (SP))  returns 0x20001030 (0000ms, 1677ms total)
T0618 053:788 JLINK_ReadReg(R14)  returns 0xFFFFFFFF (0000ms, 1677ms total)
T0618 053:788 JLINK_ReadReg(R15 (PC))  returns 0x0800019C (0000ms, 1677ms total)
T0618 053:788 JLINK_ReadReg(XPSR)  returns 0x01000000 (0000ms, 1677ms total)
T0618 053:788 JLINK_ReadReg(MSP)  returns 0x20001030 (0000ms, 1677ms total)
T0618 053:788 JLINK_ReadReg(PSP)  returns 0x00000000 (0000ms, 1677ms total)
T0618 053:788 JLINK_ReadReg(CFBP)  returns 0x00000000 (0000ms, 1677ms total)
T0618 053:788 JLINK_ReadReg(FPSCR)  returns 0x00000000 (0003ms, 1680ms total)
T0618 053:791 JLINK_ReadReg(FPS0)  returns 0x00000000 (0000ms, 1680ms total)
T0618 053:791 JLINK_ReadReg(FPS1)  returns 0x00000000 (0000ms, 1680ms total)
T0618 053:791 JLINK_ReadReg(FPS2)  returns 0x00000000 (0000ms, 1680ms total)
T0618 053:791 JLINK_ReadReg(FPS3)  returns 0x00000000 (0000ms, 1680ms total)
T0618 053:791 JLINK_ReadReg(FPS4)  returns 0x00000000 (0000ms, 1680ms total)
T0618 053:791 JLINK_ReadReg(FPS5)  returns 0x00000000 (0000ms, 1680ms total)
T0618 053:791 JLINK_ReadReg(FPS6)  returns 0x00000000 (0000ms, 1680ms total)
T0618 053:791 JLINK_ReadReg(FPS7)  returns 0x00000000 (0000ms, 1680ms total)
T0618 053:791 JLINK_ReadReg(FPS8)  returns 0x00000000 (0000ms, 1680ms total)
T0618 053:791 JLINK_ReadReg(FPS9)  returns 0x00000000 (0000ms, 1680ms total)
T0618 053:791 JLINK_ReadReg(FPS10)  returns 0x00000000 (0000ms, 1680ms total)
T0618 053:791 JLINK_ReadReg(FPS11)  returns 0x00000000 (0000ms, 1680ms total)
T0618 053:791 JLINK_ReadReg(FPS12)  returns 0x00000000 (0000ms, 1680ms total)
T0618 053:791 JLINK_ReadReg(FPS13)  returns 0x00000000 (0001ms, 1681ms total)
T0618 053:792 JLINK_ReadReg(FPS14)  returns 0x00000000 (0000ms, 1681ms total)
T0618 053:792 JLINK_ReadReg(FPS15)  returns 0x00000000 (0000ms, 1681ms total)
T0618 053:792 JLINK_ReadReg(FPS16)  returns 0x00000000 (0000ms, 1681ms total)
T0618 053:792 JLINK_ReadReg(FPS17)  returns 0x00000000 (0000ms, 1681ms total)
T0618 053:792 JLINK_ReadReg(FPS18)  returns 0x00000000 (0000ms, 1681ms total)
T0618 053:792 JLINK_ReadReg(FPS19)  returns 0x00000000 (0000ms, 1681ms total)
T0618 053:792 JLINK_ReadReg(FPS20)  returns 0x00000000 (0000ms, 1681ms total)
T0618 053:792 JLINK_ReadReg(FPS21)  returns 0x00000000 (0000ms, 1681ms total)
T0618 053:792 JLINK_ReadReg(FPS22)  returns 0x00000000 (0000ms, 1681ms total)
T0618 053:792 JLINK_ReadReg(FPS23)  returns 0x00000000 (0000ms, 1681ms total)
T0618 053:792 JLINK_ReadReg(FPS24)  returns 0x00000000 (0000ms, 1681ms total)
T0618 053:792 JLINK_ReadReg(FPS25)  returns 0x00000000 (0000ms, 1681ms total)
T0618 053:792 JLINK_ReadReg(FPS26)  returns 0x00000000 (0000ms, 1681ms total)
T0618 053:792 JLINK_ReadReg(FPS27)  returns 0x00000000 (0000ms, 1681ms total)
T0618 053:792 JLINK_ReadReg(FPS28)  returns 0x00000000 (0000ms, 1681ms total)
T0618 053:792 JLINK_ReadReg(FPS29)  returns 0x00000000 (0000ms, 1681ms total)
T0618 053:792 JLINK_ReadReg(FPS30)  returns 0x00000000 (0000ms, 1681ms total)
T0618 053:792 JLINK_ReadReg(FPS31)  returns 0x00000000 (0000ms, 1681ms total)
T0618 053:792 JLINK_ReadMemU32(0xE0001004, 0x0001 Items, ...) - Data: 00 00 00 00  returns 0x01 (0000ms, 1681ms total)
T0618 054:417 JLINK_ReadMemEx(0x0800019C, 0x003C Bytes, ..., Flags = 0x02000000) -- CPU_ReadMem(128 bytes @ 0x08000180) -- Updating C cache (128 bytes @ 0x08000180) -- Read from C cache (60 bytes @ 0x0800019C) - Data: 06 48 80 47 06 48 00 47 FE E7 FE E7 FE E7 FE E7 ...  returns 0x3C (0020ms, 1701ms total)
T3D40 056:971 JLINK_ReadMemEx(0x0800019C, 0x0002 Bytes, ..., Flags = 0x02000000) -- Read from C cache (2 bytes @ 0x0800019C) - Data: 06 48  returns 0x02 (0001ms, 1702ms total)
T3D40 056:972 JLINK_SetBPEx(Addr = 0x08000782, Type = 0xFFFFFFF2)  returns 0x00000001 (0000ms, 1702ms total)
T3D40 056:972 JLINK_Go() -- CPU_ReadMem(4 bytes @ 0xE0001000) -- CPU_WriteMem(4 bytes @ 0xE0002008) -- CPU_WriteMem(4 bytes @ 0xE000200C) -- CPU_WriteMem(4 bytes @ 0xE0002010) -- CPU_WriteMem(4 bytes @ 0xE0002014) -- CPU_WriteMem(4 bytes @ 0xE0002018) -- CPU_WriteMem(4 bytes @ 0xE000201C) -- CPU_WriteMem(4 bytes @ 0xE0001004) (0002ms, 1704ms total)
T3D40 057:075 JLINK_IsHalted()  returns TRUE (0002ms, 1706ms total)
T3D40 057:077 JLINK_Halt()  returns 0x00 (0000ms, 1704ms total)
T3D40 057:077 JLINK_IsHalted()  returns TRUE (0000ms, 1704ms total)
T3D40 057:077 JLINK_IsHalted()  returns TRUE (0000ms, 1704ms total)
T3D40 057:077 JLINK_IsHalted()  returns TRUE (0000ms, 1704ms total)
T3D40 057:077 JLINK_ReadReg(R15 (PC))  returns 0x08000782 (0000ms, 1704ms total)
T3D40 057:077 JLINK_ReadReg(XPSR)  returns 0x61000000 (0000ms, 1704ms total)
T3D40 057:077 JLINK_ClrBPEx(BPHandle = 0x00000001)  returns 0x00 (0000ms, 1704ms total)
T3D40 057:077 JLINK_ReadMemU32(0xE000ED30, 0x0001 Items, ...) -- CPU_ReadMem(4 bytes @ 0xE000ED30) - Data: 02 00 00 00  returns 0x01 (0001ms, 1705ms total)
T3D40 057:078 JLINK_ReadMemU32(0xE0001028, 0x0001 Items, ...) -- CPU_ReadMem(4 bytes @ 0xE0001028) - Data: 00 00 00 00  returns 0x01 (0002ms, 1707ms total)
T3D40 057:080 JLINK_ReadMemU32(0xE0001038, 0x0001 Items, ...) -- CPU_ReadMem(4 bytes @ 0xE0001038) - Data: 00 02 00 00  returns 0x01 (0001ms, 1708ms total)
T3D40 057:081 JLINK_ReadMemU32(0xE0001048, 0x0001 Items, ...) -- CPU_ReadMem(4 bytes @ 0xE0001048) - Data: 00 00 00 00  returns 0x01 (0000ms, 1708ms total)
T3D40 057:081 JLINK_ReadMemU32(0xE0001058, 0x0001 Items, ...) -- CPU_ReadMem(4 bytes @ 0xE0001058) - Data: 00 00 00 00  returns 0x01 (0001ms, 1709ms total)
T3D40 057:082 JLINK_ReadReg(R0)  returns 0x08000783 (0000ms, 1709ms total)
T3D40 057:082 JLINK_ReadReg(R1)  returns 0x20001030 (0000ms, 1709ms total)
T3D40 057:082 JLINK_ReadReg(R2)  returns 0x00000000 (0000ms, 1709ms total)
T3D40 057:082 JLINK_ReadReg(R3)  returns 0x08000775 (0000ms, 1709ms total)
T3D40 057:082 JLINK_ReadReg(R4)  returns 0x080007A8 (0000ms, 1709ms total)
T3D40 057:082 JLINK_ReadReg(R5)  returns 0x080007A8 (0000ms, 1709ms total)
T3D40 057:082 JLINK_ReadReg(R6)  returns 0x00000000 (0000ms, 1709ms total)
T3D40 057:082 JLINK_ReadReg(R7)  returns 0x00000000 (0000ms, 1709ms total)
T3D40 057:082 JLINK_ReadReg(R8)  returns 0x00000000 (0000ms, 1709ms total)
T3D40 057:082 JLINK_ReadReg(R9)  returns 0x00000000 (0000ms, 1709ms total)
T3D40 057:082 JLINK_ReadReg(R10)  returns 0x00000000 (0000ms, 1709ms total)
T3D40 057:082 JLINK_ReadReg(R11)  returns 0x00000000 (0000ms, 1709ms total)
T3D40 057:082 JLINK_ReadReg(R12)  returns 0x00000000 (0000ms, 1709ms total)
T3D40 057:082 JLINK_ReadReg(R13 (SP))  returns 0x20001030 (0000ms, 1709ms total)
T3D40 057:082 JLINK_ReadReg(R14)  returns 0x080001DD (0000ms, 1709ms total)
T3D40 057:082 JLINK_ReadReg(R15 (PC))  returns 0x08000782 (0000ms, 1709ms total)
T3D40 057:082 JLINK_ReadReg(XPSR)  returns 0x61000000 (0000ms, 1709ms total)
T3D40 057:082 JLINK_ReadReg(MSP)  returns 0x20001030 (0000ms, 1709ms total)
T3D40 057:082 JLINK_ReadReg(PSP)  returns 0x00000000 (0000ms, 1709ms total)
T3D40 057:082 JLINK_ReadReg(CFBP)  returns 0x00000000 (0000ms, 1709ms total)
T3D40 057:082 JLINK_ReadReg(FPSCR)  returns 0x00000000 (0003ms, 1712ms total)
T3D40 057:085 JLINK_ReadReg(FPS0)  returns 0x00000000 (0000ms, 1712ms total)
T3D40 057:085 JLINK_ReadReg(FPS1)  returns 0x00000000 (0000ms, 1712ms total)
T3D40 057:085 JLINK_ReadReg(FPS2)  returns 0x00000000 (0000ms, 1712ms total)
T3D40 057:085 JLINK_ReadReg(FPS3)  returns 0x00000000 (0000ms, 1712ms total)
T3D40 057:085 JLINK_ReadReg(FPS4)  returns 0x00000000 (0000ms, 1712ms total)
T3D40 057:085 JLINK_ReadReg(FPS5)  returns 0x00000000 (0000ms, 1712ms total)
T3D40 057:085 JLINK_ReadReg(FPS6)  returns 0x00000000 (0000ms, 1712ms total)
T3D40 057:085 JLINK_ReadReg(FPS7)  returns 0x00000000 (0000ms, 1712ms total)
T3D40 057:085 JLINK_ReadReg(FPS8)  returns 0x00000000 (0000ms, 1712ms total)
T3D40 057:085 JLINK_ReadReg(FPS9)  returns 0x00000000 (0000ms, 1712ms total)
T3D40 057:085 JLINK_ReadReg(FPS10)  returns 0x00000000 (0000ms, 1712ms total)
T3D40 057:085 JLINK_ReadReg(FPS11)  returns 0x00000000 (0000ms, 1712ms total)
T3D40 057:086 JLINK_ReadReg(FPS12)  returns 0x00000000 (0000ms, 1713ms total)
T3D40 057:086 JLINK_ReadReg(FPS13)  returns 0x00000000 (0000ms, 1713ms total)
T3D40 057:086 JLINK_ReadReg(FPS14)  returns 0x00000000 (0000ms, 1713ms total)
T3D40 057:086 JLINK_ReadReg(FPS15)  returns 0x00000000 (0000ms, 1713ms total)
T3D40 057:086 JLINK_ReadReg(FPS16)  returns 0x00000000 (0000ms, 1713ms total)
T3D40 057:086 JLINK_ReadReg(FPS17)  returns 0x00000000 (0000ms, 1713ms total)
T3D40 057:086 JLINK_ReadReg(FPS18)  returns 0x00000000 (0000ms, 1713ms total)
T3D40 057:086 JLINK_ReadReg(FPS19)  returns 0x00000000 (0000ms, 1713ms total)
T3D40 057:086 JLINK_ReadReg(FPS20)  returns 0x00000000 (0000ms, 1713ms total)
T3D40 057:086 JLINK_ReadReg(FPS21)  returns 0x00000000 (0000ms, 1713ms total)
T3D40 057:086 JLINK_ReadReg(FPS22)  returns 0x00000000 (0000ms, 1713ms total)
T3D40 057:086 JLINK_ReadReg(FPS23)  returns 0x00000000 (0000ms, 1713ms total)
T3D40 057:086 JLINK_ReadReg(FPS24)  returns 0x00000000 (0000ms, 1713ms total)
T3D40 057:086 JLINK_ReadReg(FPS25)  returns 0x00000000 (0000ms, 1713ms total)
T3D40 057:086 JLINK_ReadReg(FPS26)  returns 0x00000000 (0000ms, 1713ms total)
T3D40 057:086 JLINK_ReadReg(FPS27)  returns 0x00000000 (0000ms, 1713ms total)
T3D40 057:086 JLINK_ReadReg(FPS28)  returns 0x00000000 (0000ms, 1713ms total)
T3D40 057:086 JLINK_ReadReg(FPS29)  returns 0x00000000 (0000ms, 1713ms total)
T3D40 057:086 JLINK_ReadReg(FPS30)  returns 0x00000000 (0000ms, 1713ms total)
T3D40 057:086 JLINK_ReadReg(FPS31)  returns 0x00000000 (0000ms, 1713ms total)
T0618 057:138 JLINK_ReadMemU32(0xE0001004, 0x0001 Items, ...) -- CPU_ReadMem(4 bytes @ 0xE0001004) - Data: D0 18 00 00  returns 0x01 (0000ms, 1713ms total)
T0618 057:142 JLINK_ReadMemEx(0x08000682, 0x0002 Bytes, ..., Flags = 0x02000000) -- CPU_ReadMem(64 bytes @ 0x08000680) -- Updating C cache (64 bytes @ 0x08000680) -- Read from C cache (2 bytes @ 0x08000682) - Data: 01 68  returns 0x02 (0001ms, 1714ms total)
T0618 057:143 JLINK_ReadMemEx(0x08000684, 0x003C Bytes, ..., Flags = 0x02000000) -- Read from C cache (60 bytes @ 0x08000684) - Data: 21 F4 E0 51 41 F4 A0 51 01 60 01 68 21 F4 60 41 ...  returns 0x3C (0000ms, 1714ms total)
T0618 057:144 JLINK_ReadMemEx(0x080006C0, 0x003C Bytes, ..., Flags = 0x02000000) -- CPU_ReadMem(64 bytes @ 0x080006C0) -- Updating C cache (64 bytes @ 0x080006C0) -- Read from C cache (60 bytes @ 0x080006C0) - Data: 40 F4 80 60 20 60 20 68 40 F4 00 70 20 60 70 BD ...  returns 0x3C (0000ms, 1715ms total)
T0618 057:144 JLINK_ReadMemEx(0x0800070C, 0x003C Bytes, ..., Flags = 0x02000000) -- CPU_ReadMem(128 bytes @ 0x08000700) -- Updating C cache (128 bytes @ 0x08000700) -- Read from C cache (60 bytes @ 0x0800070C) - Data: 10 48 01 68 41 F4 70 01 01 60 0F 48 01 68 41 F0 ...  returns 0x3C (0002ms, 1717ms total)
T0618 057:146 JLINK_ReadMemEx(0x08000748, 0x003C Bytes, ..., Flags = 0x02000000) -- CPU_ReadMem(64 bytes @ 0x08000780) -- Updating C cache (64 bytes @ 0x08000780) -- Read from C cache (60 bytes @ 0x08000748) - Data: 80 39 08 60 70 47 00 00 88 ED 00 E0 00 38 02 40 ...  returns 0x3C (0001ms, 1718ms total)
T0618 057:147 JLINK_ReadMemEx(0x08000784, 0x003C Bytes, ..., Flags = 0x02000000) -- Read from C cache (60 bytes @ 0x08000784) - Data: 0B FF FE E7 A8 07 00 08 00 00 00 20 14 00 00 00 ...  returns 0x3C (0000ms, 1718ms total)
T3D40 070:999 JLINK_ReadMemEx(0x08000782, 0x0002 Bytes, ..., Flags = 0x02000000) -- Read from C cache (2 bytes @ 0x08000782) - Data: FF F7  returns 0x02 (0000ms, 1718ms total)
T3D40 070:999 JLINK_SetBPEx(Addr = 0x080004A0, Type = 0xFFFFFFF2)  returns 0x00000002 (0000ms, 1718ms total)
T3D40 070:999 JLINK_Go() -- CPU_ReadMem(4 bytes @ 0xE0001000) -- CPU_WriteMem(4 bytes @ 0xE0002008) (0002ms, 1720ms total)
T3D40 071:101 JLINK_IsHalted()  returns TRUE (0001ms, 1721ms total)
T3D40 071:102 JLINK_Halt()  returns 0x00 (0000ms, 1720ms total)
T3D40 071:102 JLINK_IsHalted()  returns TRUE (0000ms, 1720ms total)
T3D40 071:102 JLINK_IsHalted()  returns TRUE (0000ms, 1720ms total)
T3D40 071:103 JLINK_IsHalted()  returns TRUE (0000ms, 1720ms total)
T3D40 071:103 JLINK_ReadReg(R15 (PC))  returns 0x080004A0 (0000ms, 1720ms total)
T3D40 071:103 JLINK_ReadReg(XPSR)  returns 0x4100000F (0000ms, 1720ms total)
T3D40 071:103 JLINK_ClrBPEx(BPHandle = 0x00000002)  returns 0x00 (0000ms, 1720ms total)
T3D40 071:103 JLINK_ReadMemU32(0xE000ED30, 0x0001 Items, ...) -- CPU_ReadMem(4 bytes @ 0xE000ED30) - Data: 02 00 00 00  returns 0x01 (0000ms, 1720ms total)
T3D40 071:103 JLINK_ReadMemU32(0xE0001028, 0x0001 Items, ...) -- CPU_ReadMem(4 bytes @ 0xE0001028) - Data: 00 00 00 00  returns 0x01 (0000ms, 1720ms total)
T3D40 071:103 JLINK_ReadMemU32(0xE0001038, 0x0001 Items, ...) -- CPU_ReadMem(4 bytes @ 0xE0001038) - Data: 00 02 00 00  returns 0x01 (0001ms, 1721ms total)
T3D40 071:104 JLINK_ReadMemU32(0xE0001048, 0x0001 Items, ...) -- CPU_ReadMem(4 bytes @ 0xE0001048) - Data: 00 00 00 00  returns 0x01 (0000ms, 1721ms total)
T3D40 071:104 JLINK_ReadMemU32(0xE0001058, 0x0001 Items, ...) -- CPU_ReadMem(4 bytes @ 0xE0001058) - Data: 00 00 00 00  returns 0x01 (0000ms, 1721ms total)
T3D40 071:104 JLINK_ReadReg(R0)  returns 0x00000000 (0000ms, 1721ms total)
T3D40 071:104 JLINK_ReadReg(R1)  returns 0x20000014 (0000ms, 1721ms total)
T3D40 071:104 JLINK_ReadReg(R2)  returns 0x00000001 (0000ms, 1721ms total)
T3D40 071:104 JLINK_ReadReg(R3)  returns 0x05FA0000 (0000ms, 1721ms total)
T3D40 071:104 JLINK_ReadReg(R4)  returns 0x080007A8 (0000ms, 1721ms total)
T3D40 071:104 JLINK_ReadReg(R5)  returns 0x080007A8 (0000ms, 1721ms total)
T3D40 071:104 JLINK_ReadReg(R6)  returns 0x00000000 (0001ms, 1722ms total)
T3D40 071:105 JLINK_ReadReg(R7)  returns 0x00000000 (0000ms, 1722ms total)
T3D40 071:105 JLINK_ReadReg(R8)  returns 0x00000000 (0000ms, 1722ms total)
T3D40 071:105 JLINK_ReadReg(R9)  returns 0x00000000 (0000ms, 1722ms total)
T3D40 071:105 JLINK_ReadReg(R10)  returns 0x00000000 (0000ms, 1722ms total)
T3D40 071:105 JLINK_ReadReg(R11)  returns 0x00000000 (0000ms, 1722ms total)
T3D40 071:105 JLINK_ReadReg(R12)  returns 0x00000000 (0000ms, 1722ms total)
T3D40 071:105 JLINK_ReadReg(R13 (SP))  returns 0x20001010 (0000ms, 1722ms total)
T3D40 071:105 JLINK_ReadReg(R14)  returns 0xFFFFFFF9 (0000ms, 1722ms total)
T3D40 071:105 JLINK_ReadReg(R15 (PC))  returns 0x080004A0 (0000ms, 1722ms total)
T3D40 071:105 JLINK_ReadReg(XPSR)  returns 0x4100000F (0000ms, 1722ms total)
T3D40 071:105 JLINK_ReadReg(MSP)  returns 0x20001010 (0000ms, 1722ms total)
T3D40 071:105 JLINK_ReadReg(PSP)  returns 0x00000000 (0000ms, 1722ms total)
T3D40 071:105 JLINK_ReadReg(CFBP)  returns 0x00000000 (0000ms, 1722ms total)
T3D40 071:105 JLINK_ReadReg(FPSCR)  returns 0x00000000 (0002ms, 1724ms total)
T3D40 071:107 JLINK_ReadReg(FPS0)  returns 0x00000000 (0001ms, 1725ms total)
T3D40 071:108 JLINK_ReadReg(FPS1)  returns 0x00000000 (0000ms, 1725ms total)
T3D40 071:108 JLINK_ReadReg(FPS2)  returns 0x00000000 (0000ms, 1725ms total)
T3D40 071:108 JLINK_ReadReg(FPS3)  returns 0x00000000 (0000ms, 1725ms total)
T3D40 071:108 JLINK_ReadReg(FPS4)  returns 0x00000000 (0000ms, 1725ms total)
T3D40 071:108 JLINK_ReadReg(FPS5)  returns 0x00000000 (0000ms, 1725ms total)
T3D40 071:108 JLINK_ReadReg(FPS6)  returns 0x00000000 (0000ms, 1725ms total)
T3D40 071:108 JLINK_ReadReg(FPS7)  returns 0x00000000 (0000ms, 1725ms total)
T3D40 071:108 JLINK_ReadReg(FPS8)  returns 0x00000000 (0000ms, 1725ms total)
T3D40 071:108 JLINK_ReadReg(FPS9)  returns 0x00000000 (0000ms, 1725ms total)
T3D40 071:108 JLINK_ReadReg(FPS10)  returns 0x00000000 (0000ms, 1725ms total)
T3D40 071:108 JLINK_ReadReg(FPS11)  returns 0x00000000 (0000ms, 1725ms total)
T3D40 071:108 JLINK_ReadReg(FPS12)  returns 0x00000000 (0000ms, 1725ms total)
T3D40 071:108 JLINK_ReadReg(FPS13)  returns 0x00000000 (0000ms, 1725ms total)
T3D40 071:108 JLINK_ReadReg(FPS14)  returns 0x00000000 (0000ms, 1725ms total)
T3D40 071:108 JLINK_ReadReg(FPS15)  returns 0x00000000 (0000ms, 1725ms total)
T3D40 071:108 JLINK_ReadReg(FPS16)  returns 0x00000000 (0000ms, 1725ms total)
T3D40 071:108 JLINK_ReadReg(FPS17)  returns 0x00000000 (0000ms, 1725ms total)
T3D40 071:108 JLINK_ReadReg(FPS18)  returns 0x00000000 (0000ms, 1725ms total)
T3D40 071:108 JLINK_ReadReg(FPS19)  returns 0x00000000 (0000ms, 1725ms total)
T3D40 071:108 JLINK_ReadReg(FPS20)  returns 0x00000000 (0000ms, 1725ms total)
T3D40 071:108 JLINK_ReadReg(FPS21)  returns 0x00000000 (0000ms, 1725ms total)
T3D40 071:108 JLINK_ReadReg(FPS22)  returns 0x00000000 (0000ms, 1725ms total)
T3D40 071:108 JLINK_ReadReg(FPS23)  returns 0x00000000 (0000ms, 1725ms total)
T3D40 071:108 JLINK_ReadReg(FPS24)  returns 0x00000000 (0000ms, 1725ms total)
T3D40 071:108 JLINK_ReadReg(FPS25)  returns 0x00000000 (0000ms, 1725ms total)
T3D40 071:108 JLINK_ReadReg(FPS26)  returns 0x00000000 (0000ms, 1725ms total)
T3D40 071:108 JLINK_ReadReg(FPS27)  returns 0x00000000 (0000ms, 1725ms total)
T3D40 071:108 JLINK_ReadReg(FPS28)  returns 0x00000000 (0000ms, 1725ms total)
T3D40 071:108 JLINK_ReadReg(FPS29)  returns 0x00000000 (0000ms, 1725ms total)
T3D40 071:108 JLINK_ReadReg(FPS30)  returns 0x00000000 (0000ms, 1725ms total)
T3D40 071:108 JLINK_ReadReg(FPS31)  returns 0x00000000 (0000ms, 1725ms total)
T0618 071:108 JLINK_ReadMemEx(0x20001028, 0x0004 Bytes, ..., Flags = 0x02000000) -- CPU_ReadMem(64 bytes @ 0x20001000) -- Updating C cache (64 bytes @ 0x20001000) -- Read from C cache (4 bytes @ 0x20001028) - Data: 86 07 00 08  returns 0x04 (0001ms, 1726ms total)
T0618 071:109 JLINK_ReadMemEx(0x2000102C, 0x0004 Bytes, ..., Flags = 0x02000000) -- Read from C cache (4 bytes @ 0x2000102C) - Data: 00 00 00 41  returns 0x04 (0000ms, 1726ms total)
T0618 071:109 JLINK_ReadMemEx(0x20001024, 0x0004 Bytes, ..., Flags = 0x02000000) -- Read from C cache (4 bytes @ 0x20001024) - Data: 51 05 00 08  returns 0x04 (0000ms, 1726ms total)
T0618 071:109 JLINK_ReadMemEx(0xE000ED28, 0x0004 Bytes, ..., Flags = 0x02000000) -- CPU_ReadMem(4 bytes @ 0xE000ED28) - Data: 00 00 00 00  returns 0x04 (0000ms, 1726ms total)
T0618 071:120 JLINK_ReadMemEx(0x080003A0, 0x003C Bytes, ..., Flags = 0x02000000) -- CPU_ReadMem(128 bytes @ 0x08000380) -- Updating C cache (128 bytes @ 0x08000380) -- Read from C cache (60 bytes @ 0x080003A0) - Data: 30 BD 00 00 02 48 00 68 C0 F3 02 20 70 47 00 00 ...  returns 0x3C (0001ms, 1727ms total)
T0618 071:121 JLINK_ReadMemEx(0x080003DC, 0x0024 Bytes, ..., Flags = 0x02000000) -- Read from C cache (36 bytes @ 0x080003DC) - Data: FF F7 E2 FF 00 22 11 46 FF F7 C4 FF 01 46 6F F0 ...  returns 0x24 (0000ms, 1727ms total)
T0618 071:121 JLINK_ReadMemEx(0x08000400, 0x0018 Bytes, ..., Flags = 0x02000000) -- CPU_ReadMem(64 bytes @ 0x08000400) -- Updating C cache (64 bytes @ 0x08000400) -- Read from C cache (24 bytes @ 0x08000400) - Data: 6F F0 0A 00 00 F0 34 F8 FF F7 CC FF 00 22 11 46 ...  returns 0x18 (0001ms, 1728ms total)
T0618 071:122 JLINK_ReadMemEx(0x08000418, 0x003C Bytes, ..., Flags = 0x02000000) -- CPU_ReadMem(64 bytes @ 0x08000440) -- Updating C cache (64 bytes @ 0x08000440) -- Read from C cache (60 bytes @ 0x08000418) - Data: 09 00 00 F0 29 F8 FF F7 C1 FF 00 22 11 46 FF F7 ...  returns 0x3C (0001ms, 1729ms total)
T0618 071:123 JLINK_ReadMemEx(0x08000454, 0x003C Bytes, ..., Flags = 0x02000000) -- CPU_ReadMem(64 bytes @ 0x08000480) -- Updating C cache (64 bytes @ 0x08000480) -- Read from C cache (60 bytes @ 0x08000454) - Data: 8D FF 01 46 BD E8 08 40 6F F0 01 00 00 F0 06 B8 ...  returns 0x3C (0001ms, 1730ms total)
T0618 071:124 JLINK_ReadMemEx(0x08000490, 0x003C Bytes, ..., Flags = 0x02000000) -- CPU_ReadMem(64 bytes @ 0x080004C0) -- Updating C cache (64 bytes @ 0x080004C0) -- Read from C cache (60 bytes @ 0x08000490) - Data: 70 47 70 47 00 F0 06 B8 FF F7 FC BF 00 F0 2C B8 ...  returns 0x3C (0000ms, 1730ms total)
T0618 099:504 JLINK_ReadMemEx(0x20000014, 0x0004 Bytes, ..., Flags = 0x02000000) -- CPU_ReadMem(64 bytes @ 0x20000000) -- Updating C cache (64 bytes @ 0x20000000) -- Read from C cache (4 bytes @ 0x20000014) - Data: 00 00 00 00  returns 0x04 (0001ms, 1731ms total)
T0618 099:505 JLINK_ReadMemEx(0x20000018, 0x0004 Bytes, ..., Flags = 0x02000000) -- Read from C cache (4 bytes @ 0x20000018) - Data: 00 00 00 00  returns 0x04 (0000ms, 1731ms total)
T0618 099:505 JLINK_ReadMemEx(0x2000001C, 0x0004 Bytes, ..., Flags = 0x02000000) -- Read from C cache (4 bytes @ 0x2000001C) - Data: 00 00 00 00  returns 0x04 (0000ms, 1731ms total)
T0618 099:505 JLINK_ReadMemEx(0x20000020, 0x0004 Bytes, ..., Flags = 0x02000000) -- Read from C cache (4 bytes @ 0x20000020) - Data: 00 00 00 00  returns 0x04 (0000ms, 1731ms total)
T0618 099:505 JLINK_ReadMemEx(0x20000024, 0x0004 Bytes, ..., Flags = 0x02000000) -- Read from C cache (4 bytes @ 0x20000024) - Data: 00 00 00 00  returns 0x04 (0000ms, 1731ms total)
T0618 099:505 JLINK_ReadMemEx(0x20000028, 0x0004 Bytes, ..., Flags = 0x02000000) -- Read from C cache (4 bytes @ 0x20000028) - Data: 25 03 00 08  returns 0x04 (0000ms, 1731ms total)
T0618 099:505 JLINK_ReadMemEx(0x2000002C, 0x0004 Bytes, ..., Flags = 0x02000000) -- Read from C cache (4 bytes @ 0x2000002C) - Data: 00 00 00 00  returns 0x04 (0000ms, 1731ms total)
T3D40 103:288 JLINK_ReadMemEx(0x080004A0, 0x0002 Bytes, ..., Flags = 0x02000000) -- Read from C cache (2 bytes @ 0x080004A0) - Data: FF F7  returns 0x02 (0000ms, 1731ms total)
T3D40 103:288 JLINK_Step() -- Read from C cache (2 bytes @ 0x080004A0) -- CPU_ReadMem(4 bytes @ 0xE000ED18) -- CPU_WriteMem(4 bytes @ 0xE000ED18) -- CPU_ReadMem(4 bytes @ 0xE000ED18) -- CPU_WriteMem(4 bytes @ 0xE000ED18) -- CPU_ReadMem(4 bytes @ 0xE0001004) -- Read from C cache (2 bytes @ 0x080004A2) -- Simulated  returns 0x00 (0019ms, 1750ms total)
T3D40 103:307 JLINK_ReadReg(R15 (PC))  returns 0x08000498 (0000ms, 1750ms total)
T3D40 103:307 JLINK_ReadReg(XPSR)  returns 0x4100000F (0000ms, 1750ms total)
T3D40 103:307 JLINK_SetBPEx(Addr = 0x080004A0, Type = 0xFFFFFFF2)  returns 0x00000003 (0000ms, 1750ms total)
T3D40 103:307 JLINK_Go() -- CPU_ReadMem(4 bytes @ 0xE0001000) -- CPU_WriteMem(4 bytes @ 0xE0001004) (0001ms, 1751ms total)
T3D40 103:409 JLINK_IsHalted()  returns TRUE (0001ms, 1752ms total)
T3D40 103:410 JLINK_Halt()  returns 0x00 (0000ms, 1751ms total)
T3D40 103:410 JLINK_IsHalted()  returns TRUE (0001ms, 1752ms total)
T3D40 103:411 JLINK_IsHalted()  returns TRUE (0000ms, 1751ms total)
T3D40 103:411 JLINK_IsHalted()  returns TRUE (0000ms, 1751ms total)
T3D40 103:411 JLINK_ReadReg(R15 (PC))  returns 0x080004A0 (0000ms, 1751ms total)
T3D40 103:411 JLINK_ReadReg(XPSR)  returns 0x4100000F (0000ms, 1751ms total)
T3D40 103:411 JLINK_ClrBPEx(BPHandle = 0x00000003)  returns 0x00 (0000ms, 1751ms total)
T3D40 103:411 JLINK_ReadMemU32(0xE000ED30, 0x0001 Items, ...) -- CPU_ReadMem(4 bytes @ 0xE000ED30) - Data: 02 00 00 00  returns 0x01 (0000ms, 1751ms total)
T3D40 103:411 JLINK_ReadMemU32(0xE0001028, 0x0001 Items, ...) -- CPU_ReadMem(4 bytes @ 0xE0001028) - Data: 00 00 00 00  returns 0x01 (0000ms, 1751ms total)
T3D40 103:411 JLINK_ReadMemU32(0xE0001038, 0x0001 Items, ...) -- CPU_ReadMem(4 bytes @ 0xE0001038) - Data: 00 02 00 00  returns 0x01 (0001ms, 1752ms total)
T3D40 103:412 JLINK_ReadMemU32(0xE0001048, 0x0001 Items, ...) -- CPU_ReadMem(4 bytes @ 0xE0001048) - Data: 00 00 00 00  returns 0x01 (0000ms, 1752ms total)
T3D40 103:412 JLINK_ReadMemU32(0xE0001058, 0x0001 Items, ...) -- CPU_ReadMem(4 bytes @ 0xE0001058) - Data: 00 00 00 00  returns 0x01 (0000ms, 1752ms total)
T3D40 103:413 JLINK_ReadReg(R0)  returns 0x00000000 (0000ms, 1752ms total)
T3D40 103:413 JLINK_ReadReg(R1)  returns 0x20000014 (0000ms, 1752ms total)
T3D40 103:413 JLINK_ReadReg(R2)  returns 0x00000001 (0000ms, 1752ms total)
T3D40 103:413 JLINK_ReadReg(R3)  returns 0x05FA0000 (0000ms, 1752ms total)
T3D40 103:413 JLINK_ReadReg(R4)  returns 0x080007A8 (0000ms, 1752ms total)
T3D40 103:413 JLINK_ReadReg(R5)  returns 0x080007A8 (0000ms, 1752ms total)
T3D40 103:413 JLINK_ReadReg(R6)  returns 0x00000000 (0000ms, 1752ms total)
T3D40 103:413 JLINK_ReadReg(R7)  returns 0x00000000 (0000ms, 1752ms total)
T3D40 103:413 JLINK_ReadReg(R8)  returns 0x00000000 (0000ms, 1752ms total)
T3D40 103:413 JLINK_ReadReg(R9)  returns 0x00000000 (0000ms, 1752ms total)
T3D40 103:413 JLINK_ReadReg(R10)  returns 0x00000000 (0000ms, 1752ms total)
T3D40 103:413 JLINK_ReadReg(R11)  returns 0x00000000 (0000ms, 1752ms total)
T3D40 103:413 JLINK_ReadReg(R12)  returns 0x00000000 (0000ms, 1752ms total)
T3D40 103:413 JLINK_ReadReg(R13 (SP))  returns 0x20001010 (0000ms, 1752ms total)
T3D40 103:413 JLINK_ReadReg(R14)  returns 0xFFFFFFF9 (0000ms, 1752ms total)
T3D40 103:413 JLINK_ReadReg(R15 (PC))  returns 0x080004A0 (0000ms, 1752ms total)
T3D40 103:413 JLINK_ReadReg(XPSR)  returns 0x4100000F (0000ms, 1752ms total)
T3D40 103:413 JLINK_ReadReg(MSP)  returns 0x20001010 (0000ms, 1752ms total)
T3D40 103:413 JLINK_ReadReg(PSP)  returns 0x00000000 (0000ms, 1752ms total)
T3D40 103:413 JLINK_ReadReg(CFBP)  returns 0x00000000 (0000ms, 1752ms total)
T3D40 103:413 JLINK_ReadReg(FPSCR)  returns 0x00000000 (0003ms, 1755ms total)
T3D40 103:416 JLINK_ReadReg(FPS0)  returns 0x00000000 (0000ms, 1755ms total)
T3D40 103:416 JLINK_ReadReg(FPS1)  returns 0x00000000 (0000ms, 1755ms total)
T3D40 103:416 JLINK_ReadReg(FPS2)  returns 0x00000000 (0000ms, 1755ms total)
T3D40 103:416 JLINK_ReadReg(FPS3)  returns 0x00000000 (0000ms, 1755ms total)
T3D40 103:416 JLINK_ReadReg(FPS4)  returns 0x00000000 (0000ms, 1755ms total)
T3D40 103:416 JLINK_ReadReg(FPS5)  returns 0x00000000 (0000ms, 1755ms total)
T3D40 103:416 JLINK_ReadReg(FPS6)  returns 0x00000000 (0000ms, 1755ms total)
T3D40 103:416 JLINK_ReadReg(FPS7)  returns 0x00000000 (0000ms, 1755ms total)
T3D40 103:416 JLINK_ReadReg(FPS8)  returns 0x00000000 (0000ms, 1755ms total)
T3D40 103:416 JLINK_ReadReg(FPS9)  returns 0x00000000 (0000ms, 1755ms total)
T3D40 103:416 JLINK_ReadReg(FPS10)  returns 0x00000000 (0000ms, 1755ms total)
T3D40 103:416 JLINK_ReadReg(FPS11)  returns 0x00000000 (0000ms, 1755ms total)
T3D40 103:416 JLINK_ReadReg(FPS12)  returns 0x00000000 (0000ms, 1755ms total)
T3D40 103:416 JLINK_ReadReg(FPS13)  returns 0x00000000 (0000ms, 1755ms total)
T3D40 103:416 JLINK_ReadReg(FPS14)  returns 0x00000000 (0000ms, 1755ms total)
T3D40 103:416 JLINK_ReadReg(FPS15)  returns 0x00000000 (0000ms, 1755ms total)
T3D40 103:416 JLINK_ReadReg(FPS16)  returns 0x00000000 (0000ms, 1755ms total)
T3D40 103:416 JLINK_ReadReg(FPS17)  returns 0x00000000 (0000ms, 1755ms total)
T3D40 103:416 JLINK_ReadReg(FPS18)  returns 0x00000000 (0000ms, 1755ms total)
T3D40 103:416 JLINK_ReadReg(FPS19)  returns 0x00000000 (0000ms, 1755ms total)
T3D40 103:416 JLINK_ReadReg(FPS20)  returns 0x00000000 (0000ms, 1755ms total)
T3D40 103:416 JLINK_ReadReg(FPS21)  returns 0x00000000 (0000ms, 1755ms total)
T3D40 103:416 JLINK_ReadReg(FPS22)  returns 0x00000000 (0000ms, 1755ms total)
T3D40 103:416 JLINK_ReadReg(FPS23)  returns 0x00000000 (0000ms, 1755ms total)
T3D40 103:416 JLINK_ReadReg(FPS24)  returns 0x00000000 (0000ms, 1755ms total)
T3D40 103:416 JLINK_ReadReg(FPS25)  returns 0x00000000 (0000ms, 1755ms total)
T3D40 103:416 JLINK_ReadReg(FPS26)  returns 0x00000000 (0000ms, 1755ms total)
T3D40 103:416 JLINK_ReadReg(FPS27)  returns 0x00000000 (0000ms, 1755ms total)
T3D40 103:416 JLINK_ReadReg(FPS28)  returns 0x00000000 (0000ms, 1755ms total)
T3D40 103:416 JLINK_ReadReg(FPS29)  returns 0x00000000 (0000ms, 1755ms total)
T3D40 103:416 JLINK_ReadReg(FPS30)  returns 0x00000000 (0000ms, 1755ms total)
T3D40 103:416 JLINK_ReadReg(FPS31)  returns 0x00000000 (0000ms, 1755ms total)
T0618 103:417 JLINK_ReadMemEx(0x20001028, 0x0004 Bytes, ..., Flags = 0x02000000) -- CPU_ReadMem(64 bytes @ 0x20001000) -- Updating C cache (64 bytes @ 0x20001000) -- Read from C cache (4 bytes @ 0x20001028) - Data: 86 07 00 08  returns 0x04 (0000ms, 1755ms total)
T0618 103:417 JLINK_ReadMemEx(0x2000102C, 0x0004 Bytes, ..., Flags = 0x02000000) -- Read from C cache (4 bytes @ 0x2000102C) - Data: 00 00 00 41  returns 0x04 (0000ms, 1755ms total)
T0618 103:417 JLINK_ReadMemEx(0x20001024, 0x0004 Bytes, ..., Flags = 0x02000000) -- Read from C cache (4 bytes @ 0x20001024) - Data: 51 05 00 08  returns 0x04 (0000ms, 1755ms total)
T0618 103:417 JLINK_ReadMemEx(0xE000ED28, 0x0004 Bytes, ..., Flags = 0x02000000) -- CPU_ReadMem(4 bytes @ 0xE000ED28) - Data: 00 00 00 00  returns 0x04 (0001ms, 1756ms total)
T0618 103:418 JLINK_ReadMemEx(0x20000014, 0x0004 Bytes, ..., Flags = 0x02000000) -- CPU_ReadMem(64 bytes @ 0x20000000) -- Updating C cache (64 bytes @ 0x20000000) -- Read from C cache (4 bytes @ 0x20000014) - Data: 01 00 00 00  returns 0x04 (0000ms, 1756ms total)
T0618 103:419 JLINK_ReadMemEx(0x20000018, 0x0004 Bytes, ..., Flags = 0x02000000) -- Read from C cache (4 bytes @ 0x20000018) - Data: 00 00 00 00  returns 0x04 (0000ms, 1756ms total)
T0618 103:419 JLINK_ReadMemEx(0x2000001C, 0x0004 Bytes, ..., Flags = 0x02000000) -- Read from C cache (4 bytes @ 0x2000001C) - Data: 00 00 00 00  returns 0x04 (0000ms, 1756ms total)
T0618 103:419 JLINK_ReadMemEx(0x20000020, 0x0004 Bytes, ..., Flags = 0x02000000) -- Read from C cache (4 bytes @ 0x20000020) - Data: 01 00 00 00  returns 0x04 (0000ms, 1756ms total)
T0618 103:419 JLINK_ReadMemEx(0x20000024, 0x0004 Bytes, ..., Flags = 0x02000000) -- Read from C cache (4 bytes @ 0x20000024) - Data: 00 00 00 00  returns 0x04 (0000ms, 1756ms total)
T0618 103:419 JLINK_ReadMemEx(0x20000028, 0x0004 Bytes, ..., Flags = 0x02000000) -- Read from C cache (4 bytes @ 0x20000028) - Data: 25 03 00 08  returns 0x04 (0000ms, 1756ms total)
T0618 103:419 JLINK_ReadMemEx(0x2000002C, 0x0004 Bytes, ..., Flags = 0x02000000) -- Read from C cache (4 bytes @ 0x2000002C) - Data: 00 00 00 00  returns 0x04 (0000ms, 1756ms total)
T0618 118:193 JLINK_ReadMemEx(0xE000E010, 0x0010 Bytes, ..., Flags = 0x02000000) -- CPU_ReadMem(16 bytes @ 0xE000E010) - Data: 07 00 01 00 3F 90 02 00 32 90 02 00 3E 49 00 40  returns 0x10 (0000ms, 1756ms total)
T0618 126:186 JLINK_ReadMemEx(0xE000E010, 0x0004 Bytes, ..., Flags = 0x02000000) -- CPU_ReadMem(4 bytes @ 0xE000E010) - Data: 07 00 01 00  returns 0x04 (0000ms, 1756ms total)
T0618 132:858 JLINK_ReadMemEx(0xE000E014, 0x0004 Bytes, ..., Flags = 0x02000000) -- CPU_ReadMem(4 bytes @ 0xE000E014) - Data: 3F 90 02 00  returns 0x04 (0000ms, 1756ms total)
T3D40 1708:611 JLINK_ReadMemEx(0x080004A0, 0x0002 Bytes, ..., Flags = 0x02000000) -- CPU_ReadMem(64 bytes @ 0x08000480) -- Updating C cache (64 bytes @ 0x08000480) -- Read from C cache (2 bytes @ 0x080004A0) - Data: FF F7  returns 0x02 (0001ms, 1757ms total)
T3D40 1708:612 JLINK_Step() -- Read from C cache (2 bytes @ 0x080004A0) -- CPU_ReadMem(4 bytes @ 0xE0001004) -- Read from C cache (2 bytes @ 0x080004A2) -- Simulated  returns 0x00 (0001ms, 1758ms total)
T3D40 1708:613 JLINK_ReadReg(R15 (PC))  returns 0x08000498 (0000ms, 1758ms total)
T3D40 1708:613 JLINK_ReadReg(XPSR)  returns 0x4100000F (0000ms, 1758ms total)
T3D40 1708:613 JLINK_SetBPEx(Addr = 0x080004A0, Type = 0xFFFFFFF2)  returns 0x00000004 (0000ms, 1758ms total)
T3D40 1708:613 JLINK_Go() -- CPU_ReadMem(4 bytes @ 0xE0001000) -- CPU_WriteMem(4 bytes @ 0xE0001004) (0001ms, 1759ms total)
T3D40 1708:715 JLINK_IsHalted()  returns TRUE (0002ms, 1761ms total)
T3D40 1708:717 JLINK_Halt()  returns 0x00 (0000ms, 1759ms total)
T3D40 1708:717 JLINK_IsHalted()  returns TRUE (0000ms, 1759ms total)
T3D40 1708:717 JLINK_IsHalted()  returns TRUE (0000ms, 1759ms total)
T3D40 1708:717 JLINK_IsHalted()  returns TRUE (0000ms, 1759ms total)
T3D40 1708:717 JLINK_ReadReg(R15 (PC))  returns 0x080004A0 (0000ms, 1759ms total)
T3D40 1708:717 JLINK_ReadReg(XPSR)  returns 0x4100000F (0000ms, 1759ms total)
T3D40 1708:717 JLINK_ClrBPEx(BPHandle = 0x00000004)  returns 0x00 (0000ms, 1759ms total)
T3D40 1708:717 JLINK_ReadMemU32(0xE000ED30, 0x0001 Items, ...) -- CPU_ReadMem(4 bytes @ 0xE000ED30) - Data: 02 00 00 00  returns 0x01 (0000ms, 1759ms total)
T3D40 1708:717 JLINK_ReadMemU32(0xE0001028, 0x0001 Items, ...) -- CPU_ReadMem(4 bytes @ 0xE0001028) - Data: 00 00 00 00  returns 0x01 (0000ms, 1759ms total)
T3D40 1708:717 JLINK_ReadMemU32(0xE0001038, 0x0001 Items, ...) -- CPU_ReadMem(4 bytes @ 0xE0001038) - Data: 00 02 00 00  returns 0x01 (0001ms, 1760ms total)
T3D40 1708:718 JLINK_ReadMemU32(0xE0001048, 0x0001 Items, ...) -- CPU_ReadMem(4 bytes @ 0xE0001048) - Data: 00 00 00 00  returns 0x01 (0000ms, 1760ms total)
T3D40 1708:718 JLINK_ReadMemU32(0xE0001058, 0x0001 Items, ...) -- CPU_ReadMem(4 bytes @ 0xE0001058) - Data: 00 00 00 00  returns 0x01 (0000ms, 1760ms total)
T3D40 1708:718 JLINK_ReadReg(R0)  returns 0x00000000 (0000ms, 1760ms total)
T3D40 1708:719 JLINK_ReadReg(R1)  returns 0x20000014 (0000ms, 1761ms total)
T3D40 1708:719 JLINK_ReadReg(R2)  returns 0x00000001 (0000ms, 1761ms total)
T3D40 1708:719 JLINK_ReadReg(R3)  returns 0x05FA0000 (0000ms, 1761ms total)
T3D40 1708:719 JLINK_ReadReg(R4)  returns 0x080007A8 (0000ms, 1761ms total)
T3D40 1708:719 JLINK_ReadReg(R5)  returns 0x080007A8 (0000ms, 1761ms total)
T3D40 1708:719 JLINK_ReadReg(R6)  returns 0x00000000 (0000ms, 1761ms total)
T3D40 1708:719 JLINK_ReadReg(R7)  returns 0x00000000 (0000ms, 1761ms total)
T3D40 1708:719 JLINK_ReadReg(R8)  returns 0x00000000 (0000ms, 1761ms total)
T3D40 1708:719 JLINK_ReadReg(R9)  returns 0x00000000 (0000ms, 1761ms total)
T3D40 1708:719 JLINK_ReadReg(R10)  returns 0x00000000 (0000ms, 1761ms total)
T3D40 1708:719 JLINK_ReadReg(R11)  returns 0x00000000 (0000ms, 1761ms total)
T3D40 1708:719 JLINK_ReadReg(R12)  returns 0x00000000 (0000ms, 1761ms total)
T3D40 1708:719 JLINK_ReadReg(R13 (SP))  returns 0x20001010 (0000ms, 1761ms total)
T3D40 1708:719 JLINK_ReadReg(R14)  returns 0xFFFFFFF9 (0000ms, 1761ms total)
T3D40 1708:719 JLINK_ReadReg(R15 (PC))  returns 0x080004A0 (0000ms, 1761ms total)
T3D40 1708:719 JLINK_ReadReg(XPSR)  returns 0x4100000F (0000ms, 1761ms total)
T3D40 1708:719 JLINK_ReadReg(MSP)  returns 0x20001010 (0000ms, 1761ms total)
T3D40 1708:719 JLINK_ReadReg(PSP)  returns 0x00000000 (0000ms, 1761ms total)
T3D40 1708:719 JLINK_ReadReg(CFBP)  returns 0x00000000 (0000ms, 1761ms total)
T3D40 1708:719 JLINK_ReadReg(FPSCR)  returns 0x00000000 (0003ms, 1764ms total)
T3D40 1708:722 JLINK_ReadReg(FPS0)  returns 0x00000000 (0000ms, 1764ms total)
T3D40 1708:722 JLINK_ReadReg(FPS1)  returns 0x00000000 (0000ms, 1764ms total)
T3D40 1708:722 JLINK_ReadReg(FPS2)  returns 0x00000000 (0000ms, 1764ms total)
T3D40 1708:722 JLINK_ReadReg(FPS3)  returns 0x00000000 (0000ms, 1764ms total)
T3D40 1708:722 JLINK_ReadReg(FPS4)  returns 0x00000000 (0000ms, 1764ms total)
T3D40 1708:722 JLINK_ReadReg(FPS5)  returns 0x00000000 (0000ms, 1764ms total)
T3D40 1708:722 JLINK_ReadReg(FPS6)  returns 0x00000000 (0000ms, 1764ms total)
T3D40 1708:722 JLINK_ReadReg(FPS7)  returns 0x00000000 (0000ms, 1764ms total)
T3D40 1708:722 JLINK_ReadReg(FPS8)  returns 0x00000000 (0000ms, 1764ms total)
T3D40 1708:722 JLINK_ReadReg(FPS9)  returns 0x00000000 (0000ms, 1764ms total)
T3D40 1708:722 JLINK_ReadReg(FPS10)  returns 0x00000000 (0000ms, 1764ms total)
T3D40 1708:722 JLINK_ReadReg(FPS11)  returns 0x00000000 (0000ms, 1764ms total)
T3D40 1708:722 JLINK_ReadReg(FPS12)  returns 0x00000000 (0000ms, 1764ms total)
T3D40 1708:722 JLINK_ReadReg(FPS13)  returns 0x00000000 (0000ms, 1764ms total)
T3D40 1708:722 JLINK_ReadReg(FPS14)  returns 0x00000000 (0000ms, 1764ms total)
T3D40 1708:722 JLINK_ReadReg(FPS15)  returns 0x00000000 (0000ms, 1764ms total)
T3D40 1708:722 JLINK_ReadReg(FPS16)  returns 0x00000000 (0000ms, 1764ms total)
T3D40 1708:722 JLINK_ReadReg(FPS17)  returns 0x00000000 (0000ms, 1764ms total)
T3D40 1708:722 JLINK_ReadReg(FPS18)  returns 0x00000000 (0000ms, 1764ms total)
T3D40 1708:722 JLINK_ReadReg(FPS19)  returns 0x00000000 (0000ms, 1764ms total)
T3D40 1708:722 JLINK_ReadReg(FPS20)  returns 0x00000000 (0000ms, 1764ms total)
T3D40 1708:722 JLINK_ReadReg(FPS21)  returns 0x00000000 (0000ms, 1764ms total)
T3D40 1708:722 JLINK_ReadReg(FPS22)  returns 0x00000000 (0000ms, 1764ms total)
T3D40 1708:722 JLINK_ReadReg(FPS23)  returns 0x00000000 (0000ms, 1764ms total)
T3D40 1708:722 JLINK_ReadReg(FPS24)  returns 0x00000000 (0000ms, 1764ms total)
T3D40 1708:722 JLINK_ReadReg(FPS25)  returns 0x00000000 (0000ms, 1764ms total)
T3D40 1708:722 JLINK_ReadReg(FPS26)  returns 0x00000000 (0000ms, 1764ms total)
T3D40 1708:722 JLINK_ReadReg(FPS27)  returns 0x00000000 (0000ms, 1764ms total)
T3D40 1708:722 JLINK_ReadReg(FPS28)  returns 0x00000000 (0000ms, 1764ms total)
T3D40 1708:722 JLINK_ReadReg(FPS29)  returns 0x00000000 (0000ms, 1764ms total)
T3D40 1708:722 JLINK_ReadReg(FPS30)  returns 0x00000000 (0000ms, 1764ms total)
T3D40 1708:722 JLINK_ReadReg(FPS31)  returns 0x00000000 (0000ms, 1764ms total)
T0618 1708:723 JLINK_ReadMemEx(0x20001028, 0x0004 Bytes, ..., Flags = 0x02000000) -- CPU_ReadMem(64 bytes @ 0x20001000) -- Updating C cache (64 bytes @ 0x20001000) -- Read from C cache (4 bytes @ 0x20001028) - Data: 86 07 00 08  returns 0x04 (0000ms, 1764ms total)
T0618 1708:723 JLINK_ReadMemEx(0x2000102C, 0x0004 Bytes, ..., Flags = 0x02000000) -- Read from C cache (4 bytes @ 0x2000102C) - Data: 00 00 00 41  returns 0x04 (0000ms, 1764ms total)
T0618 1708:723 JLINK_ReadMemEx(0x20001024, 0x0004 Bytes, ..., Flags = 0x02000000) -- Read from C cache (4 bytes @ 0x20001024) - Data: 51 05 00 08  returns 0x04 (0000ms, 1764ms total)
T0618 1708:723 JLINK_ReadMemEx(0xE000ED28, 0x0004 Bytes, ..., Flags = 0x02000000) -- CPU_ReadMem(4 bytes @ 0xE000ED28) - Data: 00 00 00 00  returns 0x04 (0001ms, 1765ms total)
T0618 1708:724 JLINK_ReadMemEx(0x20000014, 0x0004 Bytes, ..., Flags = 0x02000000) -- CPU_ReadMem(64 bytes @ 0x20000000) -- Updating C cache (64 bytes @ 0x20000000) -- Read from C cache (4 bytes @ 0x20000014) - Data: 02 00 00 00  returns 0x04 (0000ms, 1765ms total)
T0618 1708:725 JLINK_ReadMemEx(0x20000018, 0x0004 Bytes, ..., Flags = 0x02000000) -- Read from C cache (4 bytes @ 0x20000018) - Data: 00 00 00 00  returns 0x04 (0000ms, 1765ms total)
T0618 1708:725 JLINK_ReadMemEx(0x2000001C, 0x0004 Bytes, ..., Flags = 0x02000000) -- Read from C cache (4 bytes @ 0x2000001C) - Data: 00 00 00 00  returns 0x04 (0000ms, 1765ms total)
